time	V(input)	V(output1)	V(output2)
0.000000000000000e+000	0.000000e+000	0.000000e+000	0.000000e+000
2.340571362375549e-006	2.942904e-002	1.471452e-002	2.354323e-002
4.681142724751098e-006	5.882014e-002	2.941007e-002	4.705611e-002
7.021714087126647e-006	8.817332e-002	4.408666e-002	7.053865e-002
9.362285449502195e-006	1.174886e-001	5.874428e-002	9.399084e-002
1.170285681187774e-005	1.467659e-001	7.338293e-002	1.174127e-001
1.404342817425329e-005	1.760052e-001	8.800262e-002	1.408042e-001
1.638399953662884e-005	2.052067e-001	1.026033e-001	1.641653e-001
3.276799907325767e-005	4.063560e-001	2.031780e-001	3.250848e-001
6.553599814651534e-005	7.865490e-001	3.932745e-001	6.292392e-001
1.155359981465153e-004	1.295178e+000	6.475891e-001	1.036143e+000
1.655359981465153e-004	1.694563e+000	8.472814e-001	1.355650e+000
2.020215323259428e-004	1.898260e+000	9.491299e-001	1.518608e+000
2.190868119350669e-004	1.956771e+000	9.783857e-001	1.565417e+000
2.361082081670515e-004	1.985304e+000	9.926519e-001	1.588243e+000
2.572778935185583e-004	1.989750e+000	9.948748e-001	1.591800e+000
2.768491353516128e-004	1.959585e+000	9.797925e-001	1.567668e+000
3.086390419614932e-004	1.837123e+000	9.185617e-001	1.469699e+000
3.586390419614932e-004	1.513894e+000	7.569472e-001	1.211116e+000
4.086390419614932e-004	1.059477e+000	5.297383e-001	8.475813e-001
4.586390419614933e-004	5.013497e-001	2.506749e-001	4.010798e-001
5.086390419614933e-004	-1.058527e-001	-5.292636e-002	-8.468218e-002
5.586390419614933e-004	-7.026935e-001	-3.513468e-001	-5.621548e-001
6.086390419614933e-004	-1.230750e+000	-6.153749e-001	-9.845998e-001
6.586390419614933e-004	-1.646359e+000	-8.231794e-001	-1.317087e+000
6.993353614922289e-004	-1.886248e+000	-9.431238e-001	-1.508998e+000
7.170782837910947e-004	-1.951679e+000	-9.758394e-001	-1.561343e+000
7.336893034778706e-004	-1.984335e+000	-9.921677e-001	-1.587468e+000
7.495594822197924e-004	-1.995211e+000	-9.976053e-001	-1.596168e+000
7.648362673507978e-004	-1.984042e+000	-9.920210e-001	-1.587233e+000
7.891446740316229e-004	-1.921715e+000	-9.608573e-001	-1.537372e+000
8.284927729174875e-004	-1.728093e+000	-8.640463e-001	-1.382474e+000
8.784927729174875e-004	-1.348999e+000	-6.744995e-001	-1.079199e+000
9.284927729174876e-004	-8.474003e-001	-4.237002e-001	-6.779203e-001
9.784927729174875e-004	-2.628521e-001	-1.314261e-001	-2.102817e-001
1.028492772917487e-003	3.474258e-001	1.737129e-001	2.779407e-001
1.078492772917487e-003	9.236953e-001	4.618477e-001	7.389563e-001
1.128492772917487e-003	1.409547e+000	7.047735e-001	1.127638e+000
1.178492772917487e-003	1.776900e+000	8.884500e-001	1.421520e+000
1.206965071392851e-003	1.918836e+000	9.594179e-001	1.535069e+000
1.222796691746775e-003	1.965375e+000	9.826877e-001	1.572300e+000
1.240598583215567e-003	1.989185e+000	9.945927e-001	1.591348e+000
1.261502232867026e-003	1.985650e+000	9.928252e-001	1.588520e+000
1.283723009345503e-003	1.939967e+000	9.699835e-001	1.551974e+000
1.319753606173251e-003	1.779420e+000	8.897098e-001	1.423536e+000
1.369753606173251e-003	1.424325e+000	7.121625e-001	1.139460e+000
1.419753606173251e-003	9.425744e-001	4.712872e-001	7.540596e-001
1.469753606173251e-003	3.685581e-001	1.842791e-001	2.948465e-001
1.519753606173251e-003	-2.415352e-001	-1.207676e-001	-1.932282e-001
1.569753606173250e-003	-8.279854e-001	-4.139927e-001	-6.623884e-001
1.619753606173250e-003	-1.333387e+000	-6.666933e-001	-1.066709e+000
1.669753606173250e-003	-1.722563e+000	-8.612813e-001	-1.378050e+000
1.703643786744997e-003	-1.905234e+000	-9.526168e-001	-1.524187e+000
1.720302362694064e-003	-1.959705e+000	-9.798526e-001	-1.567764e+000
1.737576374752028e-003	-1.986164e+000	-9.930818e-001	-1.588931e+000
1.760374443681264e-003	-1.986105e+000	-9.930527e-001	-1.588884e+000
1.781888283691941e-003	-1.945592e+000	-9.727958e-001	-1.556473e+000
1.816790497445422e-003	-1.795644e+000	-8.978218e-001	-1.436515e+000
1.866790497445422e-003	-1.448901e+000	-7.244507e-001	-1.159121e+000
1.916790497445422e-003	-9.742134e-001	-4.871067e-001	-7.793707e-001
1.966790497445422e-003	-4.041625e-001	-2.020812e-001	-3.233300e-001
2.016790497445422e-003	2.054506e-001	1.027253e-001	1.643605e-001
2.066790497445422e-003	7.949528e-001	3.974764e-001	6.359622e-001
2.116790497445422e-003	1.306639e+000	6.533197e-001	1.045311e+000
2.166790497445422e-003	1.703010e+000	8.515049e-001	1.362408e+000
2.202505555298499e-003	1.900363e+000	9.501815e-001	1.520290e+000
2.219449292325440e-003	1.957658e+000	9.788290e-001	1.566126e+000
2.236545690886623e-003	1.984977e+000	9.924886e-001	1.587982e+000
2.259989217537181e-003	1.986251e+000	9.931254e-001	1.589001e+000
2.281261508023074e-003	1.947448e+000	9.737242e-001	1.557959e+000
2.315777631941878e-003	1.801050e+000	9.005251e-001	1.440840e+000
2.365777631941878e-003	1.457187e+000	7.285937e-001	1.165750e+000
2.415777631941878e-003	9.849514e-001	4.924757e-001	7.879611e-001
2.465777631941878e-003	4.163015e-001	2.081507e-001	3.330412e-001
2.515777631941878e-003	-1.930990e-001	-9.654948e-002	-1.544792e-001
2.565777631941878e-003	-7.835975e-001	-3.917988e-001	-6.268780e-001
2.615777631941878e-003	-1.297392e+000	-6.486961e-001	-1.037914e+000
2.665777631941878e-003	-1.696198e+000	-8.480988e-001	-1.356958e+000
2.702114864116484e-003	-1.898667e+000	-9.493334e-001	-1.518933e+000
2.719156694121221e-003	-1.956943e+000	-9.784716e-001	-1.565554e+000
2.736192528012104e-003	-1.985383e+000	-9.926916e-001	-1.588307e+000
2.757381993026423e-003	-1.989655e+000	-9.948273e-001	-1.591724e+000
2.777018573152349e-003	-1.959149e+000	-9.795747e-001	-1.567319e+000
2.808913419838924e-003	-1.835803e+000	-9.179016e-001	-1.468643e+000
2.858913419838924e-003	-1.511770e+000	-7.558852e-001	-1.209416e+000
2.908913419838924e-003	-1.056651e+000	-5.283253e-001	-8.453204e-001
2.958913419838924e-003	-4.980984e-001	-2.490492e-001	-3.984787e-001
3.008913419838924e-003	1.092112e-001	5.460558e-002	8.736894e-002
3.058913419838924e-003	7.058303e-001	3.529152e-001	5.646643e-001
3.108913419838925e-003	1.233358e+000	6.166790e-001	9.866863e-001
3.158913419838925e-003	1.648333e+000	8.241664e-001	1.318666e+000
3.199443093438072e-003	1.886740e+000	9.433702e-001	1.509392e+000
3.217158734449202e-003	1.951889e+000	9.759443e-001	1.561511e+000
3.233786017965679e-003	1.984419e+000	9.922094e-001	1.587535e+000
3.249764104424252e-003	1.995224e+000	9.976120e-001	1.596179e+000
3.264912321931541e-003	1.984000e+000	9.920002e-001	1.587200e+000
3.289268306573261e-003	1.921270e+000	9.606350e-001	1.537016e+000
3.328691740976154e-003	1.726864e+000	8.634322e-001	1.381492e+000
3.378691740976154e-003	1.347236e+000	6.736179e-001	1.077789e+000
3.428691740976154e-003	8.452026e-001	4.226013e-001	6.761621e-001
3.478691740976155e-003	2.604351e-001	1.302175e-001	2.083481e-001
3.528691740976155e-003	-3.498257e-001	-1.749128e-001	-2.798606e-001
3.578691740976155e-003	-9.258431e-001	-4.629215e-001	-7.406744e-001
3.628691740976155e-003	-1.411232e+000	-7.056162e-001	-1.128986e+000
3.678691740976155e-003	-1.778078e+000	-8.890391e-001	-1.422462e+000
3.707040153364645e-003	-1.919133e+000	-9.595663e-001	-1.535306e+000
3.722853164984772e-003	-1.965498e+000	-9.827492e-001	-1.572399e+000
3.740667150440340e-003	-1.989246e+000	-9.946231e-001	-1.591397e+000
3.761527792629977e-003	-1.985639e+000	-9.928197e-001	-1.588511e+000
3.783764586765999e-003	-1.939836e+000	-9.699182e-001	-1.551869e+000
3.819820722495496e-003	-1.779045e+000	-8.895226e-001	-1.423236e+000
3.869820722495497e-003	-1.423763e+000	-7.118813e-001	-1.139010e+000
3.919820722495497e-003	-9.418539e-001	-4.709270e-001	-7.534832e-001
3.969820722495496e-003	-3.677501e-001	-1.838751e-001	-2.942001e-001
4.019820722495496e-003	2.423517e-001	1.211758e-001	1.938813e-001
4.069820722495496e-003	8.287303e-001	4.143652e-001	6.629843e-001
4.119820722495496e-003	1.333987e+000	6.669936e-001	1.067190e+000
4.169820722495495e-003	1.722999e+000	8.614995e-001	1.378399e+000
4.203669490197008e-003	1.905342e+000	9.526712e-001	1.524274e+000
4.220321637233249e-003	1.959751e+000	9.798754e-001	1.567801e+000
4.237599679986814e-003	1.986190e+000	9.930948e-001	1.588952e+000
4.260383150311802e-003	1.986102e+000	9.930510e-001	1.588882e+000
4.281902449231924e-003	1.945549e+000	9.727746e-001	1.556439e+000
4.316813385323852e-003	1.795521e+000	8.977603e-001	1.436416e+000
4.366813385323852e-003	1.448713e+000	7.243567e-001	1.158971e+000
4.416813385323851e-003	9.739702e-001	4.869851e-001	7.791762e-001
4.466813385323851e-003	4.038880e-001	2.019440e-001	3.231104e-001
4.516813385323851e-003	-2.057296e-001	-1.028648e-001	-1.645837e-001
4.566813385323850e-003	-7.952089e-001	-3.976045e-001	-6.361672e-001
4.616813385323850e-003	-1.306848e+000	-6.534238e-001	-1.045478e+000
4.666813385323850e-003	-1.703163e+000	-8.515815e-001	-1.362530e+000
4.702514374019237e-003	-1.900401e+000	-9.502006e-001	-1.520321e+000
4.719455898147441e-003	-1.957674e+000	-9.788371e-001	-1.566139e+000
4.736553666157208e-003	-1.984987e+000	-9.924934e-001	-1.587989e+000
4.759992199681356e-003	-1.986250e+000	-9.931249e-001	-1.589000e+000
4.781266360213169e-003	-1.947434e+000	-9.737171e-001	-1.557947e+000
4.815785474220522e-003	-1.801009e+000	-9.005044e-001	-1.440807e+000
4.865785474220521e-003	-1.457124e+000	-7.285618e-001	-1.165699e+000
4.915785474220521e-003	-9.848684e-001	-4.924342e-001	-7.878947e-001
4.965785474220521e-003	-4.162075e-001	-2.081038e-001	-3.329660e-001
5.015785474220521e-003	1.931946e-001	9.659732e-002	1.545557e-001
5.065785474220520e-003	7.836856e-001	3.918428e-001	6.269485e-001
5.115785474220520e-003	1.297464e+000	6.487319e-001	1.037971e+000
5.165785474220520e-003	1.696251e+000	8.481253e-001	1.357000e+000
5.202117892394662e-003	1.898680e+000	9.493400e-001	1.518944e+000
5.219158961650173e-003	1.956949e+000	9.784744e-001	1.565559e+000
5.236195264188674e-003	1.985386e+000	9.926928e-001	1.588309e+000
5.257385371022823e-003	1.989652e+000	9.948258e-001	1.591721e+000
5.277024071322794e-003	1.959135e+000	9.795676e-001	1.567308e+000
5.308922322941358e-003	1.835760e+000	9.178801e-001	1.468608e+000
5.358922322941358e-003	1.511701e+000	7.558507e-001	1.209361e+000
5.408922322941358e-003	1.056559e+000	5.282794e-001	8.452470e-001
5.458922322941357e-003	4.979928e-001	2.489964e-001	3.983943e-001
5.508922322941357e-003	-1.093201e-001	-5.466007e-002	-8.745611e-002
5.558922322941357e-003	-7.059321e-001	-3.529660e-001	-5.647457e-001
5.608922322941357e-003	-1.233442e+000	-6.167212e-001	-9.867540e-001
5.658922322941356e-003	-1.648397e+000	-8.241984e-001	-1.318717e+000
5.699446587885580e-003	-1.886756e+000	-9.433782e-001	-1.509405e+000
5.717161344134370e-003	-1.951895e+000	-9.759477e-001	-1.561516e+000
5.733789155469332e-003	-1.984421e+000	-9.922107e-001	-1.587537e+000
5.749770742497614e-003	-1.995224e+000	-9.976122e-001	-1.596179e+000
5.764914789184855e-003	-1.983999e+000	-9.919996e-001	-1.587199e+000
5.789272317246628e-003	-1.921256e+000	-9.606278e-001	-1.537004e+000
5.828698195307681e-003	-1.726825e+000	-8.634123e-001	-1.381460e+000
5.878698195307681e-003	-1.347179e+000	-6.735893e-001	-1.077743e+000
5.928698195307680e-003	-8.451313e-001	-4.225656e-001	-6.761051e-001
5.978698195307680e-003	-2.603567e-001	-1.301783e-001	-2.082853e-001
6.028698195307680e-003	3.499035e-001	1.749518e-001	2.799228e-001
6.078698195307679e-003	9.259127e-001	4.629564e-001	7.407302e-001
6.128698195307679e-003	1.411287e+000	7.056435e-001	1.129030e+000
6.178698195307679e-003	1.778116e+000	8.890582e-001	1.422493e+000
6.207042588600851e-003	1.919142e+000	9.595711e-001	1.535314e+000
6.222854996720471e-003	1.965502e+000	9.827511e-001	1.572402e+000
6.240669374552951e-003	1.989248e+000	9.946240e-001	1.591398e+000
6.261528621692833e-003	1.985639e+000	9.928195e-001	1.588511e+000
6.283765935378475e-003	1.939832e+000	9.699160e-001	1.551866e+000
6.319822899468200e-003	1.779033e+000	8.895165e-001	1.423226e+000
6.369822899468199e-003	1.423744e+000	7.118721e-001	1.138995e+000
6.419822899468199e-003	9.418305e-001	4.709153e-001	7.534645e-001
6.469822899468199e-003	3.677239e-001	1.838619e-001	2.941791e-001
6.519822899468199e-003	-2.423781e-001	-1.211891e-001	-1.939025e-001
6.569822899468198e-003	-8.287545e-001	-4.143772e-001	-6.630036e-001
6.619822899468198e-003	-1.334007e+000	-6.670033e-001	-1.067205e+000
6.669822899468198e-003	-1.723013e+000	-8.615066e-001	-1.378411e+000
6.703670323853292e-003	-1.905346e+000	-9.526730e-001	-1.524277e+000
6.720322262384305e-003	-1.959752e+000	-9.798762e-001	-1.567802e+000
6.737600435882529e-003	-1.986190e+000	-9.930952e-001	-1.588952e+000
6.760383432704989e-003	-1.986102e+000	-9.930510e-001	-1.588882e+000
6.781902908680517e-003	-1.945548e+000	-9.727739e-001	-1.556438e+000
6.816814127672264e-003	-1.795516e+000	-8.977582e-001	-1.436413e+000
6.866814127672264e-003	-1.448707e+000	-7.243537e-001	-1.158966e+000
6.916814127672264e-003	-9.739623e-001	-4.869812e-001	-7.791699e-001
6.966814127672263e-003	-4.038791e-001	-2.019395e-001	-3.231033e-001
7.016814127672263e-003	2.057386e-001	1.028693e-001	1.645909e-001
7.066814127672263e-003	7.952173e-001	3.976086e-001	6.361738e-001
7.116814127672263e-003	1.306854e+000	6.534272e-001	1.045484e+000
7.166814127672262e-003	1.703168e+000	8.515840e-001	1.362534e+000
7.202514660039599e-003	1.900402e+000	9.502012e-001	1.520322e+000
7.219456112397090e-003	1.957675e+000	9.788373e-001	1.566140e+000
7.236553924824368e-003	1.984987e+000	9.924935e-001	1.587990e+000
7.259992296402830e-003	1.986250e+000	9.931249e-001	1.589000e+000
7.281266517586804e-003	1.947434e+000	9.737169e-001	1.557947e+000
7.315785728572968e-003	1.801007e+000	9.005036e-001	1.440806e+000
7.365785728572967e-003	1.457121e+000	7.285607e-001	1.165697e+000
7.415785728572967e-003	9.848657e-001	4.924329e-001	7.878926e-001
7.465785728572967e-003	4.162045e-001	2.081022e-001	3.329636e-001
7.515785728572966e-003	-1.931977e-001	-9.659887e-002	-1.545582e-001
7.565785728572966e-003	-7.836884e-001	-3.918442e-001	-6.269507e-001
7.615785728572966e-003	-1.297466e+000	-6.487331e-001	-1.037973e+000
7.665785728572966e-003	-1.696252e+000	-8.481261e-001	-1.357002e+000
7.702117990611417e-003	-1.898680e+000	-9.493402e-001	-1.518944e+000
7.719159035193508e-003	-1.956949e+000	-9.784744e-001	-1.565559e+000
7.736195352931961e-003	-1.985386e+000	-9.926929e-001	-1.588309e+000
7.757385480582424e-003	-1.989651e+000	-9.948257e-001	-1.591721e+000
7.777024249646621e-003	-1.959135e+000	-9.795673e-001	-1.567308e+000
7.808922611698037e-003	-1.835759e+000	-9.178795e-001	-1.468607e+000
7.858922611698037e-003	-1.511699e+000	-7.558496e-001	-1.209359e+000
7.908922611698037e-003	-1.056556e+000	-5.282779e-001	-8.452446e-001
7.958922611698036e-003	-4.979894e-001	-2.489947e-001	-3.983915e-001
8.008922611698036e-003	1.093237e-001	5.466183e-002	8.745893e-002
8.058922611698036e-003	7.059354e-001	3.529677e-001	5.647483e-001
8.108922611698035e-003	1.233445e+000	6.167226e-001	9.867561e-001
8.158922611698035e-003	1.648399e+000	8.241994e-001	1.318719e+000
8.199446701220584e-003	1.886757e+000	9.433784e-001	1.509405e+000
8.217161428774137e-003	1.951896e+000	9.759479e-001	1.561517e+000
8.233789257228065e-003	1.984421e+000	9.922107e-001	1.587537e+000
8.249770957790354e-003	1.995224e+000	9.976122e-001	1.596179e+000
8.264914869205317e-003	1.983999e+000	9.919995e-001	1.587199e+000
8.289272447324818e-003	1.921255e+000	9.606276e-001	1.537004e+000
8.328698404640789e-003	1.726823e+000	8.634116e-001	1.381459e+000
8.378698404640788e-003	1.347177e+000	6.735884e-001	1.077741e+000
8.428698404640788e-003	8.451290e-001	4.225645e-001	6.761032e-001
8.478698404640788e-003	2.603541e-001	1.301771e-001	2.082833e-001
8.528698404640787e-003	-3.499061e-001	-1.749530e-001	-2.799248e-001
8.578698404640787e-003	-9.259149e-001	-4.629575e-001	-7.407320e-001
8.628698404640787e-003	-1.411289e+000	-7.056444e-001	-1.129031e+000
8.678698404640787e-003	-1.778118e+000	-8.890588e-001	-1.422494e+000
8.707042667582415e-003	-1.919142e+000	-9.595712e-001	-1.535314e+000
8.722855056128881e-003	-1.965502e+000	-9.827512e-001	-1.572402e+000
8.740669446687371e-003	-1.989248e+000	-9.946241e-001	-1.591398e+000
8.761528648581728e-003	-1.985639e+000	-9.928195e-001	-1.588511e+000
8.783765979117855e-003	-1.939832e+000	-9.699160e-001	-1.551866e+000
8.819822970073660e-003	-1.779033e+000	-8.895163e-001	-1.423226e+000
8.869822970073660e-003	-1.423744e+000	-7.118719e-001	-1.138995e+000
8.919822970073659e-003	-9.418298e-001	-4.709149e-001	-7.534639e-001
8.969822970073659e-003	-3.677230e-001	-1.838615e-001	-2.941785e-001
9.019822970073659e-003	2.423790e-001	1.211895e-001	1.939032e-001
9.069822970073659e-003	8.287553e-001	4.143777e-001	6.630042e-001
9.119822970073658e-003	1.334007e+000	6.670036e-001	1.067206e+000
9.169822970073658e-003	1.723014e+000	8.615068e-001	1.378411e+000
9.203670350891095e-003	1.905346e+000	9.526731e-001	1.524277e+000
9.220322282659709e-003	1.959752e+000	9.798762e-001	1.567802e+000
9.237600460398362e-003	1.986190e+000	9.930952e-001	1.588952e+000
9.260383441863796e-003	1.986102e+000	9.930509e-001	1.588882e+000
9.281902923581728e-003	1.945548e+000	9.727738e-001	1.556438e+000
9.316814151748712e-003	1.795516e+000	8.977582e-001	1.436413e+000
9.366814151748712e-003	1.448707e+000	7.243536e-001	1.158966e+000
9.416814151748712e-003	9.739621e-001	4.869810e-001	7.791696e-001
9.466814151748711e-003	4.038788e-001	2.019394e-001	3.231030e-001
9.516814151748711e-003	-2.057389e-001	-1.028695e-001	-1.645912e-001
9.566814151748711e-003	-7.952175e-001	-3.976088e-001	-6.361740e-001
9.616814151748710e-003	-1.306855e+000	-6.534274e-001	-1.045484e+000
9.666814151748710e-003	-1.703168e+000	-8.515841e-001	-1.362535e+000
9.702514669316036e-003	-1.900402e+000	-9.502012e-001	-1.520322e+000
9.719456119345805e-003	-1.957675e+000	-9.788373e-001	-1.566140e+000
9.736553933213670e-003	-1.984987e+000	-9.924935e-001	-1.587990e+000
9.759992299539779e-003	-1.986250e+000	-9.931249e-001	-1.589000e+000
9.781266522690872e-003	-1.947434e+000	-9.737169e-001	-1.557947e+000
9.815785736822329e-003	-1.801007e+000	-9.005036e-001	-1.440806e+000
9.865785736822329e-003	-1.457121e+000	-7.285607e-001	-1.165697e+000
9.915785736822329e-003	-9.848657e-001	-4.924328e-001	-7.878925e-001
9.965785736822328e-003	-4.184051e-001	-2.092026e-001	-3.347241e-001
1.000000000000000e-002	0.000000e+000	0.000000e+000	-3.918740e-015
